#H
SOURCE='PSPICE' VERSION='PSpice 9.1 (Nov 1999)'
TITLE='* C:\Users\jedua\Desktop\UNICAMP\UNICAMP_2022\2sem2022\TCC\Pspice_examples\LCfilter.sch'
SUBTITLE=''
TIME='15:03:52' DATE='11/14/22' TEMPERATURE='2.700E01'
ANALYSIS='AC Sweep' SERIALNO='72226'
ALLVALUES='NO' COMPLEXVALUES='YES' NODES='2'
SWEEPVAR='Frequency' SWEEPMODE='LINEAR'
XBEGIN='1.000E00' XEND='1.000E07'
FORMAT='0 R_VOLTSorAMPS;EFLOAT / I_VOLTSorAMPS;EFLOAT : NODEorBRANCH;NODE  '
DGTLDATA='NO' 
#N 
'V(Vout)';'V(C:2)';'V(L:2)';'V(R:2)';'V(Vout)';'V2(C)';'V2(L)';'V2(R)' 'V(Vout)';'V(C:2)';'V(L:2)';'V(R:2)';'V(Vout)';'V2(C)';'V2(L)';'V2(R)' 
#C 1.0000000000E00 2
1.000E00/-6.283E-09:1 1.000E00/-6.283E-09:2 
#C 1.0000099000E05 2
1.000E00/-6.288E-04:1 1.000E00/-6.288E-04:2 
#C 2.0000098000E05 2
1.002E00/-1.261E-03:1 1.002E00/-1.261E-03:2 
#C 3.0000097000E05 2
1.004E00/-1.898E-03:1 1.004E00/-1.898E-03:2 
#C 4.0000096000E05 2
1.006E00/-2.545E-03:1 1.006E00/-2.545E-03:2 
#C 5.0000095000E05 2
1.010E00/-3.205E-03:1 1.010E00/-3.205E-03:2 
#C 6.0000094000E05 2
1.014E00/-3.879E-03:1 1.014E00/-3.879E-03:2 
#C 7.0000093000E05 2
1.020E00/-4.573E-03:1 1.020E00/-4.573E-03:2 
#C 8.0000092000E05 2
1.026E00/-5.290E-03:1 1.026E00/-5.290E-03:2 
#C 9.0000091000E05 2
1.033E00/-6.034E-03:1 1.033E00/-6.034E-03:2 
#C 1.0000009000E06 2
1.041E00/-6.810E-03:1 1.041E00/-6.810E-03:2 
#C 1.1000008900E06 2
1.050E00/-7.622E-03:1 1.050E00/-7.622E-03:2 
#C 1.2000008800E06 2
1.060E00/-8.476E-03:1 1.060E00/-8.476E-03:2 
#C 1.3000008700E06 2
1.071E00/-9.377E-03:1 1.071E00/-9.377E-03:2 
#C 1.4000008600E06 2
1.084E00/-1.033E-02:1 1.084E00/-1.033E-02:2 
#C 1.5000008500E06 2
1.097E00/-1.135E-02:1 1.097E00/-1.135E-02:2 
#C 1.6000008400E06 2
1.112E00/-1.244E-02:1 1.112E00/-1.244E-02:2 
#C 1.7000008300E06 2
1.129E00/-1.361E-02:1 1.129E00/-1.361E-02:2 
#C 1.8000008200E06 2
1.146E00/-1.487E-02:1 1.146E00/-1.487E-02:2 
#C 1.9000008100E06 2
1.166E00/-1.623E-02:1 1.166E00/-1.623E-02:2 
#C 2.0000008000E06 2
1.187E00/-1.772E-02:1 1.187E00/-1.772E-02:2 
#C 2.1000007900E06 2
1.210E00/-1.934E-02:1 1.210E00/-1.934E-02:2 
#C 2.2000007800E06 2
1.236E00/-2.112E-02:1 1.236E00/-2.112E-02:2 
#C 2.3000007700E06 2
1.264E00/-2.308E-02:1 1.264E00/-2.308E-02:2 
#C 2.4000007600E06 2
1.294E00/-2.525E-02:1 1.294E00/-2.525E-02:2 
#C 2.5000007500E06 2
1.327E00/-2.767E-02:1 1.327E00/-2.767E-02:2 
#C 2.6000007400E06 2
1.363E00/-3.038E-02:1 1.363E00/-3.038E-02:2 
#C 2.7000007300E06 2
1.403E00/-3.343E-02:1 1.403E00/-3.343E-02:2 
#C 2.8000007200E06 2
1.447E00/-3.688E-02:1 1.447E00/-3.688E-02:2 
#C 2.9000007100E06 2
1.496E00/-4.081E-02:1 1.496E00/-4.081E-02:2 
#C 3.0000007000E06 2
1.550E00/-4.531E-02:1 1.550E00/-4.531E-02:2 
#C 3.1000006900E06 2
1.610E00/-5.052E-02:1 1.610E00/-5.052E-02:2 
#C 3.2000006800E06 2
1.677E00/-5.659E-02:1 1.677E00/-5.659E-02:2 
#C 3.3000006700E06 2
1.752E00/-6.372E-02:1 1.752E00/-6.372E-02:2 
#C 3.4000006600E06 2
1.837E00/-7.217E-02:1 1.837E00/-7.217E-02:2 
#C 3.5000006500E06 2
1.933E00/-8.232E-02:1 1.933E00/-8.232E-02:2 
#C 3.6000006400E06 2
2.043E00/-9.464E-02:1 2.043E00/-9.464E-02:2 
#C 3.7000006300E06 2
2.171E00/-1.098E-01:1 2.171E00/-1.098E-01:2 
#C 3.8000006200E06 2
2.319E00/-1.288E-01:1 2.319E00/-1.288E-01:2 
#C 3.9000006100E06 2
2.494E00/-1.529E-01:1 2.494E00/-1.529E-01:2 
#C 4.0000006000E06 2
2.702E00/-1.844E-01:1 2.702E00/-1.844E-01:2 
#C 4.1000005900E06 2
2.956E00/-2.264E-01:1 2.956E00/-2.264E-01:2 
#C 4.2000005800E06 2
3.269E00/-2.842E-01:1 3.269E00/-2.842E-01:2 
#C 4.3000005700E06 2
3.666E00/-3.668E-01:1 3.666E00/-3.668E-01:2 
#C 4.4000005600E06 2
4.185E00/-4.909E-01:1 4.185E00/-4.909E-01:2 
#C 4.5000005500E06 2
4.889E00/-6.892E-01:1 4.889E00/-6.892E-01:2 
#C 4.6000005400E06 2
5.892E00/-1.034E00:1 5.892E00/-1.034E00:2 
#C 4.7000005300E06 2
7.422E00/-1.713E00:1 7.422E00/-1.713E00:2 
#C 4.8000005200E06 2
9.953E00/-3.320E00:1 9.953E00/-3.320E00:2 
#C 4.9000005100E06 2
1.422E01/-8.401E00:1 1.422E01/-8.401E00:2 
#C 5.0000005000E06 2
1.127E01/-2.715E01:1 1.127E01/-2.715E01:2 
#C 5.1000004900E06 2
-1.536E01/-1.834E01:1 -1.536E01/-1.834E01:2 
#C 5.2000004800E06 2
-1.200E01/-5.810E00:1 -1.200E01/-5.810E00:2 
#C 5.3000004700E06 2
-8.394E00/-2.566E00:1 -8.394E00/-2.566E00:2 
#C 5.4000004600E06 2
-6.297E00/-1.413E00:1 -6.297E00/-1.413E00:2 
#C 5.5000004500E06 2
-4.991E00/-8.880E-01:1 -4.991E00/-8.880E-01:2 
#C 5.6000004400E06 2
-4.111E00/-6.077E-01:1 -4.111E00/-6.077E-01:2 
#C 5.7000004300E06 2
-3.482E00/-4.412E-01:1 -3.482E00/-4.412E-01:2 
#C 5.8000004200E06 2
-3.011E00/-3.345E-01:1 -3.011E00/-3.345E-01:2 
#C 5.9000004100E06 2
-2.646E00/-2.621E-01:1 -2.646E00/-2.621E-01:2 
#C 6.0000004000E06 2
-2.355E00/-2.108E-01:1 -2.355E00/-2.108E-01:2 
#C 6.1000003900E06 2
-2.118E00/-1.731E-01:1 -2.118E00/-1.731E-01:2 
#C 6.2000003800E06 2
-1.921E00/-1.446E-01:1 -1.921E00/-1.446E-01:2 
#C 6.3000003700E06 2
-1.755E00/-1.226E-01:1 -1.755E00/-1.226E-01:2 
#C 6.4000003600E06 2
-1.614E00/-1.052E-01:1 -1.614E00/-1.052E-01:2 
#C 6.5000003500E06 2
-1.492E00/-9.119E-02:1 -1.492E00/-9.119E-02:2 
#C 6.6000003400E06 2
-1.385E00/-7.980E-02:1 -1.385E00/-7.980E-02:2 
#C 6.7000003300E06 2
-1.291E00/-7.039E-02:1 -1.291E00/-7.039E-02:2 
#C 6.8000003200E06 2
-1.208E00/-6.253E-02:1 -1.208E00/-6.253E-02:2 
#C 6.9000003100E06 2
-1.134E00/-5.590E-02:1 -1.134E00/-5.590E-02:2 
#C 7.0000003000E06 2
-1.068E00/-5.026E-02:1 -1.068E00/-5.026E-02:2 
#C 7.1000002900E06 2
-1.008E00/-4.541E-02:1 -1.008E00/-4.541E-02:2 
#C 7.2000002800E06 2
-9.537E-01/-4.123E-02:1 -9.537E-01/-4.123E-02:2 
#C 7.3000002700E06 2
-9.044E-01/-3.758E-02:1 -9.044E-01/-3.758E-02:2 
#C 7.4000002600E06 2
-8.593E-01/-3.439E-02:1 -8.593E-01/-3.439E-02:2 
#C 7.5000002500E06 2
-8.180E-01/-3.158E-02:1 -8.180E-01/-3.158E-02:2 
#C 7.6000002400E06 2
-7.800E-01/-2.909E-02:1 -7.800E-01/-2.909E-02:2 
#C 7.7000002300E06 2
-7.449E-01/-2.688E-02:1 -7.449E-01/-2.688E-02:2 
#C 7.8000002200E06 2
-7.125E-01/-2.491E-02:1 -7.125E-01/-2.491E-02:2 
#C 7.9000002100E06 2
-6.823E-01/-2.314E-02:1 -6.823E-01/-2.314E-02:2 
#C 8.0000002000E06 2
-6.543E-01/-2.154E-02:1 -6.543E-01/-2.154E-02:2 
#C 8.1000001900E06 2
-6.282E-01/-2.011E-02:1 -6.282E-01/-2.011E-02:2 
#C 8.2000001800E06 2
-6.038E-01/-1.880E-02:1 -6.038E-01/-1.880E-02:2 
#C 8.3000001700E06 2
-5.810E-01/-1.762E-02:1 -5.810E-01/-1.762E-02:2 
#C 8.4000001600E06 2
-5.595E-01/-1.654E-02:1 -5.595E-01/-1.654E-02:2 
#C 8.5000001500E06 2
-5.394E-01/-1.555E-02:1 -5.394E-01/-1.555E-02:2 
#C 8.6000001400E06 2
-5.205E-01/-1.465E-02:1 -5.205E-01/-1.465E-02:2 
#C 8.7000001300E06 2
-5.026E-01/-1.382E-02:1 -5.026E-01/-1.382E-02:2 
#C 8.8000001200E06 2
-4.857E-01/-1.306E-02:1 -4.857E-01/-1.306E-02:2 
#C 8.9000001100E06 2
-4.698E-01/-1.235E-02:1 -4.698E-01/-1.235E-02:2 
#C 9.0000001000E06 2
-4.547E-01/-1.170E-02:1 -4.547E-01/-1.170E-02:2 
#C 9.1000000900E06 2
-4.404E-01/-1.110E-02:1 -4.404E-01/-1.110E-02:2 
#C 9.2000000800E06 2
-4.268E-01/-1.054E-02:1 -4.268E-01/-1.054E-02:2 
#C 9.3000000700E06 2
-4.139E-01/-1.002E-02:1 -4.139E-01/-1.002E-02:2 
#C 9.4000000600E06 2
-4.017E-01/-9.534E-03:1 -4.017E-01/-9.534E-03:2 
#C 9.5000000500E06 2
-3.900E-01/-9.082E-03:1 -3.900E-01/-9.082E-03:2 
#C 9.6000000400E06 2
-3.788E-01/-8.661E-03:1 -3.788E-01/-8.661E-03:2 
#C 9.7000000300E06 2
-3.682E-01/-8.267E-03:1 -3.682E-01/-8.267E-03:2 
#C 9.8000000200E06 2
-3.581E-01/-7.898E-03:1 -3.581E-01/-7.898E-03:2 
#C 9.9000000100E06 2
-3.484E-01/-7.552E-03:1 -3.484E-01/-7.552E-03:2 
#C 1.0000000000E07 2
-3.391E-01/-7.227E-03:1 -3.391E-01/-7.227E-03:2 
#;
