
**** 11/13/22 18:17:57 *********** Evaluation PSpice (Nov 1999) **************

 * C:\Users\jedua\Desktop\UNICAMP\UNICAMP_2022\2sem2022\TCC\Pspice_Python\Circuits\Circuito3_cargar_diferentes.sch


 ****     CIRCUIT DESCRIPTION


******************************************************************************




* Schematics Version 9.1 - Web Update 1
* Sun Nov 13 18:17:53 2022



** Analysis setup **
.tran 1us 150ms 0 1us
.OP 


* From [PSPICE NETLIST] section of pspiceev.ini:
.lib "nom.lib"

.INC "Circuito3_cargar_diferentes.net"

**** INCLUDING Circuito3_cargar_diferentes.net ****
* Schematics Netlist *



R_R3         $N_0005 $N_0007  2k  
R_R1         $N_0008 $N_0010  500  
R_R2         $N_0002 $N_0004  1k  
D_HB2_D1         $N_0002 $N_0003 Dbreak 
D_HB2_D2         $N_0003 $N_0004 Dbreak 
D_HB2_D4         0 $N_0004 Dbreak 
D_HB2_D3         $N_0002 0 Dbreak 
C_HB2_C1         $N_0002 $N_0004  50u  
D_HB3_D1         $N_0005 $N_0006 Dbreak 
D_HB3_D2         $N_0006 $N_0007 Dbreak 
D_HB3_D4         0 $N_0007 Dbreak 
D_HB3_D3         $N_0005 0 Dbreak 
C_HB3_C1         $N_0005 $N_0007  50u  
D_HB1_D1         $N_0008 $N_0009 Dbreak 
D_HB1_D2         $N_0009 $N_0010 Dbreak 
D_HB1_D4         0 $N_0010 Dbreak 
D_HB1_D3         $N_0008 0 Dbreak 
C_HB1_C1         $N_0008 $N_0010  50u  
X_U1         $N_0001 $N_0006 Sw_tClose PARAMS: tClose=51ms ttran=1u
+  Rclosed=0.01 Ropen=1Meg
X_U3         $N_0001 $N_0009 Sw_tClose PARAMS: tClose=55ms ttran=1u
+  Rclosed=0.01 Ropen=1Meg
X_U2         $N_0001 $N_0003 Sw_tClose PARAMS: tClose=56ms ttran=1u
+  Rclosed=0.01 Ropen=1Meg
L_Rede_DHT_La         $N_0011 $N_0012  100nH IC=0 
L_Rede_DHT_Lc         $N_0013 $N_0014  100nH IC=0 
L_Rede_DHT_Lb         $N_0015 $N_0016  100nH IC=0 
V_Rede_DHT_B11         $N_0017 $N_0018  
+SIN 0 3 660 0 0 120
V_Rede_DHT_C11         $N_0019 $N_0020  
+SIN 0 3 660 0 0 -120
V_Rede_DHT_C5         $N_0021 $N_0019  
+SIN 0 3 300 0 0 -120
V_Rede_DHT_B5         $N_0022 $N_0017  
+SIN 0 3 300 0 0 120
V_Rede_DHT_A5         $N_0023 $N_0024  
+SIN 0 3 300 0 0 0
V_Rede_DHT_A7         $N_0025 $N_0023  
+SIN 0 3 420 0 0 0
V_Rede_DHT_B7         $N_0026 $N_0022  
+SIN 0 3 420 0 0 120
V_Rede_DHT_C7         $N_0027 $N_0021  
+SIN 0 3 420 0 0 -120
V_Rede_DHT_A9         $N_0011 $N_0025  
+SIN 0 3 540 0 0 0
V_Rede_DHT_B9         $N_0015 $N_0026  
+SIN 0 3 540 0 0 120
V_Rede_DHT_C9         $N_0013 $N_0027  
+SIN 0 3 540 0 0 -120
R_Rede_DHT_Ra         $N_0012 A  10m  
C_Rede_DHT_Cac         0 A  100n  
R_Rede_DHT_Rb         $N_0016 0  10m  
C_Rede_DHT_Cab         0 A  100n  
V_Rede_DHT_A11         $N_0024 $N_0028  
+SIN 0 3 660 0 0 0
C_Rede_DHT_Cb         0 0  1n  
V_Rede_DHT_C         $N_0020 0  
+SIN 0 179.6 60 0 0 -120
V_Rede_DHT_B         $N_0018 0  
+SIN 0 179.6 60 0 0 120
V_Rede_DHT_A         $N_0028 0  
+SIN 0 179.6 60 0 0 0
C_Rede_DHT_Cbc         0 0  100n  
R_Rede_DHT_Rc         $N_0014 0  10m  
C_Rede_DHT_Cc         0 0  1n  
C_Rede_DHT_Ca         0 A  1n  
R_Rcorrente         A $N_0001  1  

**** RESUMING Circuito3_cargar_diferentes.cir ****
.INC "Circuito3_cargar_diferentes.als"



**** INCLUDING Circuito3_cargar_diferentes.als ****
* Schematics Aliases *

.ALIASES/CSDF
R_R3            R3(1=$N_0005 2=$N_0007 )
R_R1            R1(1=$N_0008 2=$N_0010 )
R_R2            R2(1=$N_0002 2=$N_0004 )
_   HB2(in+=$N_0003 in-=0 out+=$N_0004 out-=$N_0002 )
D_HB2_D1          HB2.D1(1=$N_0002 2=$N_0003 )
D_HB2_D2          HB2.D2(1=$N_0003 2=$N_0004 )
D_HB2_D4          HB2.D4(1=0 2=$N_0004 )
D_HB2_D3          HB2.D3(1=$N_0002 2=0 )
C_HB2_C1          HB2.C1(1=$N_0002 2=$N_0004 )
_   HB3(in+=$N_0006 in-=0 out+=$N_0007 out-=$N_0005 )
D_HB3_D1          HB3.D1(1=$N_0005 2=$N_0006 )
D_HB3_D2          HB3.D2(1=$N_0006 2=$N_0007 )
D_HB3_D4          HB3.D4(1=0 2=$N_0007 )
D_HB3_D3          HB3.D3(1=$N_0005 2=0 )
C_HB3_C1          HB3.C1(1=$N_0005 2=$N_0007 )
_   HB1(in+=$N_0009 in-=0 out+=$N_0010 out-=$N_0008 )
D_HB1_D1          HB1.D1(1=$N_0008 2=$N_0009 )
D_HB1_D2          HB1.D2(1=$N_0009 2=$N_0010 )
D_HB1_D4          HB1.D4(1=0 2=$N_0010 )
D_HB1_D3          HB1.D3(1=$N_0008 2=0 )
C_HB1_C1          HB1.C1(1=$N_0008 2=$N_0010 )
X_U1            U1(1=$N_0001 2=$N_0006 )
X_U3            U3(1=$N_0001 2=$N_0009 )
X_U2            U2(1=$N_0001 2=$N_0003 )
_   Rede_DHT(A=A B=0 C=0 T=0 )
L_Rede_DHT_La          Rede_DHT.La(1=$N_0011 2=$N_0012 )
L_Rede_DHT_Lc          Rede_DHT.Lc(1=$N_0013 2=$N_0014 )
L_Rede_DHT_Lb          Rede_DHT.Lb(1=$N_0015 2=$N_0016 )
V_Rede_DHT_B11          Rede_DHT.B11(+=$N_0017 -=$N_0018 )
V_Rede_DHT_C11          Rede_DHT.C11(+=$N_0019 -=$N_0020 )
V_Rede_DHT_C5          Rede_DHT.C5(+=$N_0021 -=$N_0019 )
V_Rede_DHT_B5          Rede_DHT.B5(+=$N_0022 -=$N_0017 )
V_Rede_DHT_A5          Rede_DHT.A5(+=$N_0023 -=$N_0024 )
V_Rede_DHT_A7          Rede_DHT.A7(+=$N_0025 -=$N_0023 )
V_Rede_DHT_B7          Rede_DHT.B7(+=$N_0026 -=$N_0022 )
V_Rede_DHT_C7          Rede_DHT.C7(+=$N_0027 -=$N_0021 )
V_Rede_DHT_A9          Rede_DHT.A9(+=$N_0011 -=$N_0025 )
V_Rede_DHT_B9          Rede_DHT.B9(+=$N_0015 -=$N_0026 )
V_Rede_DHT_C9          Rede_DHT.C9(+=$N_0013 -=$N_0027 )
R_Rede_DHT_Ra          Rede_DHT.Ra(1=$N_0012 2=A )
C_Rede_DHT_Cac          Rede_DHT.Cac(1=0 2=A )
R_Rede_DHT_Rb          Rede_DHT.Rb(1=$N_0016 2=0 )
C_Rede_DHT_Cab          Rede_DHT.Cab(1=0 2=A )
V_Rede_DHT_A11          Rede_DHT.A11(+=$N_0024 -=$N_0028 )
C_Rede_DHT_Cb          Rede_DHT.Cb(1=0 2=0 )
V_Rede_DHT_C          Rede_DHT.C(+=$N_0020 -=0 )
V_Rede_DHT_B          Rede_DHT.B(+=$N_0018 -=0 )
V_Rede_DHT_A          Rede_DHT.A(+=$N_0028 -=0 )
C_Rede_DHT_Cbc          Rede_DHT.Cbc(1=0 2=0 )
R_Rede_DHT_Rc          Rede_DHT.Rc(1=$N_0014 2=0 )
C_Rede_DHT_Cc          Rede_DHT.Cc(1=0 2=0 )
C_Rede_DHT_Ca          Rede_DHT.Ca(1=0 2=A )
R_Rcorrente          Rcorrente(1=A 2=$N_0001 )
_    _(A=A)
.ENDALIASES


**** RESUMING Circuito3_cargar_diferentes.cir ****
.probe/CSDF N(A) 
.probe/CSDF I(R_Rcorrente) 


.END

**** 11/13/22 18:17:57 *********** Evaluation PSpice (Nov 1999) **************

 * C:\Users\jedua\Desktop\UNICAMP\UNICAMP_2022\2sem2022\TCC\Pspice_Python\Circuits\Circuito3_cargar_diferentes.sch


 ****     Diode MODEL PARAMETERS


******************************************************************************




               Dbreak          
          IS   10.000000E-15 
          RS     .1          
         CJO  100.000000E-15 


**** 11/13/22 18:17:57 *********** Evaluation PSpice (Nov 1999) **************

 * C:\Users\jedua\Desktop\UNICAMP\UNICAMP_2022\2sem2022\TCC\Pspice_Python\Circuits\Circuito3_cargar_diferentes.sch


 ****     Voltage Controlled Switch MODEL PARAMETERS


******************************************************************************




               X_U1.Smod       X_U3.Smod       X_U2.Smod       
         RON     .01             .01             .01         
        ROFF    1.000000E+06    1.000000E+06    1.000000E+06 
         VON    1               1               1            
        VOFF    0               0               0            


**** 11/13/22 18:17:57 *********** Evaluation PSpice (Nov 1999) **************

 * C:\Users\jedua\Desktop\UNICAMP\UNICAMP_2022\2sem2022\TCC\Pspice_Python\Circuits\Circuito3_cargar_diferentes.sch


 ****     SMALL SIGNAL BIAS SOLUTION       TEMPERATURE =   27.000 DEG C


******************************************************************************



 NODE   VOLTAGE     NODE   VOLTAGE     NODE   VOLTAGE     NODE   VOLTAGE


(    A) 647.8E-24  (X_U1.3)    0.0000 (X_U2.3)    0.0000 (X_U3.3)    0.0000     

($N_0001) 647.8E-24                   ($N_0002) 301.3E-21                       

($N_0003) 647.9E-24                   ($N_0004) 301.3E-21                       

($N_0005) 120.1E-21                   ($N_0006) 647.6E-24                       

($N_0007) 120.1E-21                   ($N_0008) 141.3E-21                       

($N_0009) 648.5E-24                   ($N_0010) 141.3E-21                       

($N_0011)    0.0000                   ($N_0012) 647.8E-24                       

($N_0013)    0.0000                   ($N_0014)    0.0000                       

($N_0015)    0.0000                   ($N_0016)    0.0000                       

($N_0017)    0.0000                   ($N_0018)    0.0000                       

($N_0019)    0.0000                   ($N_0020)    0.0000                       

($N_0021)    0.0000                   ($N_0022)    0.0000                       

($N_0023)    0.0000                   ($N_0024)    0.0000                       

($N_0025)    0.0000                   ($N_0026)    0.0000                       

($N_0027)    0.0000                   ($N_0028)    0.0000                   




    VOLTAGE SOURCE CURRENTS
    NAME         CURRENT

    V_Rede_DHT_B11   0.000E+00
    V_Rede_DHT_C11   0.000E+00
    V_Rede_DHT_C5   0.000E+00
    V_Rede_DHT_B5   0.000E+00
    V_Rede_DHT_A5   0.000E+00
    V_Rede_DHT_A7   0.000E+00
    V_Rede_DHT_B7   0.000E+00
    V_Rede_DHT_C7   0.000E+00
    V_Rede_DHT_A9   0.000E+00
    V_Rede_DHT_B9   0.000E+00
    V_Rede_DHT_C9   0.000E+00
    V_Rede_DHT_A11   0.000E+00
    V_Rede_DHT_C   0.000E+00
    V_Rede_DHT_B   0.000E+00
    V_Rede_DHT_A   0.000E+00
    X_U1.V1      0.000E+00
    X_U3.V1      0.000E+00
    X_U2.V1      0.000E+00

    TOTAL POWER DISSIPATION   0.00E+00  WATTS


**** 11/13/22 18:17:57 *********** Evaluation PSpice (Nov 1999) **************

 * C:\Users\jedua\Desktop\UNICAMP\UNICAMP_2022\2sem2022\TCC\Pspice_Python\Circuits\Circuito3_cargar_diferentes.sch


 ****     OPERATING POINT INFORMATION      TEMPERATURE =   27.000 DEG C


******************************************************************************






**** DIODES


NAME         D_HB2_D1    D_HB2_D2    D_HB2_D4    D_HB2_D3    D_HB3_D1  
MODEL        Dbreak      Dbreak      Dbreak      Dbreak      Dbreak    
ID           0.00E+00   -0.00E+00   -0.00E+00    0.00E+00    0.00E+00 
VD           3.01E-19   -3.01E-19   -3.01E-19    3.01E-19    1.19E-19 
REQ          7.21E+11    7.21E+11    7.21E+11    7.21E+11    7.21E+11 
CAP          1.00E-13    1.00E-13    1.00E-13    1.00E-13    1.00E-13 

NAME         D_HB3_D2    D_HB3_D4    D_HB3_D3    D_HB1_D1    D_HB1_D2  
MODEL        Dbreak      Dbreak      Dbreak      Dbreak      Dbreak    
ID          -0.00E+00   -0.00E+00    0.00E+00    0.00E+00   -0.00E+00 
VD          -1.19E-19   -1.20E-19    1.20E-19    1.41E-19   -1.41E-19 
REQ          7.21E+11    7.21E+11    7.21E+11    7.21E+11    7.21E+11 
CAP          1.00E-13    1.00E-13    1.00E-13    1.00E-13    1.00E-13 

NAME         D_HB1_D4    D_HB1_D3  
MODEL        Dbreak      Dbreak    
ID          -0.00E+00    0.00E+00 
VD          -1.41E-19    1.41E-19 
REQ          7.21E+11    7.21E+11 
CAP          1.00E-13    1.00E-13 


**** VOLTAGE CONTROLLED SWITCHES


NAME         X_U1.S1     X_U3.S1     X_U2.S1   
MODEL        X_U1.Smod   X_U3.Smod   X_U2.Smod 
I LOAD       0.00E+00   -0.00E+00   -0.00E+00 
V LOAD       1.53E-25   -7.22E-25   -7.92E-26 
R LOAD       1.00E+06    1.00E+06    1.00E+06 
V CTRL       0.00E+00    0.00E+00    0.00E+00 
**** 11/13/22 18:17:57 *********** Evaluation PSpice (Nov 1999) **************

 * C:\Users\jedua\Desktop\UNICAMP\UNICAMP_2022\2sem2022\TCC\Pspice_Python\Circuits\Circuito3_cargar_diferentes.sch


 ****     INITIAL TRANSIENT SOLUTION       TEMPERATURE =   27.000 DEG C


******************************************************************************



 NODE   VOLTAGE     NODE   VOLTAGE     NODE   VOLTAGE     NODE   VOLTAGE


(    A) 647.8E-24  (X_U1.3)    0.0000 (X_U2.3)    0.0000 (X_U3.3)    0.0000     

($N_0001) 647.8E-24                   ($N_0002) 301.3E-21                       

($N_0003) 647.9E-24                   ($N_0004) 301.3E-21                       

($N_0005) 120.1E-21                   ($N_0006) 647.6E-24                       

($N_0007) 120.1E-21                   ($N_0008) 141.3E-21                       

($N_0009) 648.5E-24                   ($N_0010) 141.3E-21                       

($N_0011)    0.0000                   ($N_0012) 647.8E-24                       

($N_0013) -165.9300                   ($N_0014)-1.659E-09                       

($N_0015)  165.9300                   ($N_0016) 1.659E-09                       

($N_0017)  158.1400                   ($N_0018)  155.5400                       

($N_0019) -158.1400                   ($N_0020) -155.5400                       

($N_0021) -160.7300                   ($N_0022)  160.7300                       

($N_0023)    0.0000                   ($N_0024)    0.0000                       

($N_0025)    0.0000                   ($N_0026)  163.3300                       

($N_0027) -163.3300                   ($N_0028)    0.0000                   




    VOLTAGE SOURCE CURRENTS
    NAME         CURRENT

    V_Rede_DHT_B11  -1.659E-07
    V_Rede_DHT_C11   1.659E-07
    V_Rede_DHT_C5   1.659E-07
    V_Rede_DHT_B5  -1.659E-07
    V_Rede_DHT_A5   0.000E+00
    V_Rede_DHT_A7   0.000E+00
    V_Rede_DHT_B7  -1.659E-07
    V_Rede_DHT_C7   1.659E-07
    V_Rede_DHT_A9   0.000E+00
    V_Rede_DHT_B9  -1.659E-07
    V_Rede_DHT_C9   1.659E-07
    V_Rede_DHT_A11   0.000E+00
    V_Rede_DHT_C   1.659E-07
    V_Rede_DHT_B  -1.659E-07
    V_Rede_DHT_A   0.000E+00
    X_U1.V1      0.000E+00
    X_U3.V1      0.000E+00
    X_U2.V1      0.000E+00

    TOTAL POWER DISSIPATION   5.51E-05  WATTS



          JOB CONCLUDED

          TOTAL JOB TIME            6.47
